<Qucs Dataset 0.0.14>
<indep time 10>
  +0.00000000000e+00
  +1.11111111111e-03
  +2.22222222222e-03
  +3.33333333333e-03
  +4.44444444444e-03
  +5.55555555556e-03
  +6.66666666667e-03
  +7.77777777778e-03
  +8.88888888889e-03
  +1.00000000000e-02
</indep>
<dep V2.It time>
  +1.61756835500e+01
  -1.58489134523e-06
  +1.58487798831e-06
  -1.58486463163e-06
  +1.58485127505e-06
  -1.58483791861e-06
  +1.58482456226e-06
  -1.58481120603e-06
  +1.58479784991e-06
  -1.58478449391e-06
</dep>
<dep V1.It time>
  -8.90408338138e+00
  -7.88891316818e+00
  -7.88891321516e+00
  -7.88891316818e+00
  -7.88891321516e+00
  -7.88891316818e+00
  -7.88891321516e+00
  -7.88891316818e+00
  -7.88891321516e+00
  -7.88891316818e+00
</dep>
<dep A1.It time>
  +8.90408338138e+00
  +7.88891316818e+00
  +7.88891321516e+00
  +7.88891316818e+00
  +7.88891321516e+00
  +7.88891316818e+00
  +7.88891321516e+00
  +7.88891316818e+00
  +7.88891321516e+00
  +7.88891316818e+00
</dep>
<dep P.Vt time>
  +4.50000000000e+00
  +4.50000000000e+00
  +4.50000000000e+00
  +4.50000000000e+00
  +4.50000000000e+00
  +4.50000000000e+00
  +4.50000000000e+00
  +4.50000000000e+00
  +4.50000000000e+00
  +4.50000000000e+00
</dep>
<dep _net1.Vt time>
  -1.46913549475e+00
  +1.80516101703e-01
  +1.80516025358e-01
  +1.80516101702e-01
  +1.80516025359e-01
  +1.80516101701e-01
  +1.80516025359e-01
  +1.80516101701e-01
  +1.80516025360e-01
  +1.80516101700e-01
</dep>
<dep V.Vt time>
  -1.46913549475e+00
  +1.80516101703e-01
  +1.80516025358e-01
  +1.80516101702e-01
  +1.80516025359e-01
  +1.80516101701e-01
  +1.80516025359e-01
  +1.80516101701e-01
  +1.80516025360e-01
  +1.80516101700e-01
</dep>
<dep _net0.Vt time>
  +1.30000000000e+01
  +1.30000000000e+01
  +1.30000000000e+01
  +1.30000000000e+01
  +1.30000000000e+01
  +1.30000000000e+01
  +1.30000000000e+01
  +1.30000000000e+01
  +1.30000000000e+01
  +1.30000000000e+01
</dep>
