<Qucs Dataset 0.0.14>
<indep time 100>
  +0.00000000000e+00
  +4.04040404040e-04
  +8.08080808081e-04
  +1.21212121212e-03
  +1.61616161616e-03
  +2.02020202020e-03
  +2.42424242424e-03
  +2.82828282828e-03
  +3.23232323232e-03
  +3.63636363636e-03
  +4.04040404040e-03
  +4.44444444444e-03
  +4.84848484848e-03
  +5.25252525253e-03
  +5.65656565657e-03
  +6.06060606061e-03
  +6.46464646465e-03
  +6.86868686869e-03
  +7.27272727273e-03
  +7.67676767677e-03
  +8.08080808081e-03
  +8.48484848485e-03
  +8.88888888889e-03
  +9.29292929293e-03
  +9.69696969697e-03
  +1.01010101010e-02
  +1.05050505051e-02
  +1.09090909091e-02
  +1.13131313131e-02
  +1.17171717172e-02
  +1.21212121212e-02
  +1.25252525253e-02
  +1.29292929293e-02
  +1.33333333333e-02
  +1.37373737374e-02
  +1.41414141414e-02
  +1.45454545455e-02
  +1.49494949495e-02
  +1.53535353535e-02
  +1.57575757576e-02
  +1.61616161616e-02
  +1.65656565657e-02
  +1.69696969697e-02
  +1.73737373737e-02
  +1.77777777778e-02
  +1.81818181818e-02
  +1.85858585859e-02
  +1.89898989899e-02
  +1.93939393939e-02
  +1.97979797980e-02
  +2.02020202020e-02
  +2.06060606061e-02
  +2.10101010101e-02
  +2.14141414141e-02
  +2.18181818182e-02
  +2.22222222222e-02
  +2.26262626263e-02
  +2.30303030303e-02
  +2.34343434343e-02
  +2.38383838384e-02
  +2.42424242424e-02
  +2.46464646465e-02
  +2.50505050505e-02
  +2.54545454545e-02
  +2.58585858586e-02
  +2.62626262626e-02
  +2.66666666667e-02
  +2.70707070707e-02
  +2.74747474747e-02
  +2.78787878788e-02
  +2.82828282828e-02
  +2.86868686869e-02
  +2.90909090909e-02
  +2.94949494949e-02
  +2.98989898990e-02
  +3.03030303030e-02
  +3.07070707071e-02
  +3.11111111111e-02
  +3.15151515152e-02
  +3.19191919192e-02
  +3.23232323232e-02
  +3.27272727273e-02
  +3.31313131313e-02
  +3.35353535354e-02
  +3.39393939394e-02
  +3.43434343434e-02
  +3.47474747475e-02
  +3.51515151515e-02
  +3.55555555556e-02
  +3.59595959596e-02
  +3.63636363636e-02
  +3.67676767677e-02
  +3.71717171717e-02
  +3.75757575758e-02
  +3.79797979798e-02
  +3.83838383838e-02
  +3.87878787879e-02
  +3.91919191919e-02
  +3.95959595960e-02
  +4.00000000000e-02
</indep>
<dep Iinj.It time>
  +1.15455551504e-05
  +1.83279468065e-01
  +3.50201347630e-01
  +4.81063766069e-01
  +5.83616188913e-01
  +6.63995665986e-01
  +7.26982429399e-01
  +7.76351944668e-01
  +8.15048632918e-01
  +8.45349223164e-01
  +8.69099732642e-01
  +8.87712881311e-01
  +9.02299347533e-01
  +9.13722026287e-01
  +9.22674748470e-01
  +9.29691783868e-01
  +9.35189594236e-01
  +9.39497098528e-01
  +9.42872005697e-01
  +9.45516226664e-01
  +9.47587960245e-01
  +9.49211151690e-01
  +9.50482914120e-01
  +9.51479332466e-01
  +9.52260021542e-01
  +8.84042201982e-01
  +6.47865476990e-01
  +4.62884459473e-01
  +3.18098805075e-01
  +2.04978007487e-01
  +1.39076113870e-01
  +1.27300960510e-01
  +1.25457179153e-01
  +1.25193034884e-01
  +1.25156637344e-01
  +1.25151989936e-01
  +1.25150925253e-01
  +1.25150834618e-01
  +1.25151197177e-01
  +1.25150819308e-01
  +1.25150819093e-01
  +1.25151194655e-01
  +1.25150819310e-01
  +1.25150819348e-01
  +1.25151194349e-01
  +1.25150819608e-01
  +1.25150819647e-01
  +1.25151194050e-01
  +1.25150819907e-01
  +1.25150819946e-01
  +2.20358024402e-01
  +3.79275648842e-01
  +5.03837221945e-01
  +6.01463060945e-01
  +6.77994935249e-01
  +7.37986385926e-01
  +7.84955859117e-01
  +8.21777114118e-01
  +8.50638992066e-01
  +8.73234417349e-01
  +8.90948665012e-01
  +9.04834539448e-01
  +9.15708633587e-01
  +9.24232340624e-01
  +9.30910902288e-01
  +9.36144313330e-01
  +9.40245089003e-01
  +9.43456054938e-01
  +9.45973368823e-01
  +9.47946101183e-01
  +9.49490764711e-01
  +9.50701764059e-01
  +9.51650773399e-01
  +9.52393861382e-01
  +9.52976451469e-01
  +7.59147587038e-01
  +5.50025035772e-01
  +3.86277981238e-01
  +2.58190187946e-01
  +1.60940351439e-01
  +1.30698203630e-01
  +1.25980278280e-01
  +1.25268479458e-01
  +1.25166768815e-01
  +1.25153107603e-01
  +1.25151300941e-01
  +1.25151033874e-01
  +1.25151022879e-01
  +1.25150996633e-01
  +1.25151017847e-01
  +1.25150995997e-01
  +1.25151017723e-01
  +1.25150996019e-01
  +1.25151017688e-01
  +1.25150996053e-01
  +1.25151017654e-01
  +1.25150996086e-01
  +1.25151017620e-01
  +1.25150996120e-01
  +1.25151017586e-01
</dep>
<dep V3.It time>
  -1.57669325125e+00
  -2.61205089593e-01
  -3.31402163675e-01
  -4.66314933379e-01
  -5.72058196023e-01
  -6.54938619529e-01
  -7.19885169997e-01
  -7.70790782015e-01
  -8.10691490622e-01
  -8.41934862642e-01
  -8.66424352652e-01
  -8.85616636976e-01
  -9.00656950987e-01
  -9.12435038930e-01
  -9.21666318833e-01
  -9.28901684833e-01
  -9.34570555670e-01
  -9.39012085336e-01
  -9.42492000258e-01
  -9.45218494653e-01
  -9.47354688605e-01
  -9.49028384829e-01
  -9.50339717053e-01
  -9.51367138553e-01
  -9.52172117996e-01
  -9.06731635061e-01
  -6.74483554551e-01
  -4.83728133331e-01
  -3.34406847318e-01
  -2.17699009656e-01
  -1.43250388993e-01
  -1.27947741420e-01
  -1.25549496821e-01
  -1.25205428720e-01
  -1.25158575417e-01
  -1.25152040771e-01
  -1.25151145212e-01
  -1.25151027272e-01
  -1.25151009991e-01
  -1.25151007030e-01
  -1.25151006699e-01
  -1.25151007090e-01
  -1.25151006653e-01
  -1.25151006653e-01
  -1.25151007069e-01
  -1.25151006664e-01
  -1.25151006663e-01
  -1.25151007059e-01
  -1.25151006674e-01
  -1.25151006675e-01
  -1.97950177893e-01
  -3.61359801201e-01
  -4.89796984231e-01
  -5.90460375384e-01
  -6.69373450100e-01
  -7.31231522220e-01
  -7.79662416935e-01
  -8.17629308022e-01
  -8.47389234610e-01
  -8.70687701032e-01
  -8.88953084102e-01
  -9.03271039480e-01
  -9.14483473741e-01
  -9.23272358862e-01
  -9.30158750864e-01
  -9.35554964657e-01
  -9.39783364592e-01
  -9.43094237602e-01
  -9.45689844689e-01
  -9.47723988663e-01
  -9.49316713374e-01
  -9.50565360814e-01
  -9.51543929305e-01
  -9.52310137979e-01
  -9.52910823620e-01
  -7.89172488091e-01
  -5.73590511820e-01
  -4.04724782551e-01
  -2.72610099215e-01
  -1.70865930027e-01
  -1.32366173396e-01
  -1.26229667810e-01
  -1.25303796590e-01
  -1.25171517770e-01
  -1.25153730796e-01
  -1.25151397490e-01
  -1.25151034311e-01
  -1.25151034966e-01
  -1.25150986695e-01
  -1.25151027614e-01
  -1.25150986659e-01
  -1.25151026680e-01
  -1.25150987444e-01
  -1.25151025893e-01
  -1.25150988213e-01
  -1.25151025139e-01
  -1.25150988953e-01
  -1.25151024414e-01
  -1.25150989662e-01
  -1.25151023718e-01
</dep>
<dep CPU.It time>
  -5.06648125189e-23
  -7.16169279418e-08
  -7.16169282151e-08
  +7.16169300299e-08
  -7.16169286058e-08
  +7.16169297222e-08
  -7.16169288470e-08
  +7.16169295329e-08
  -7.16169289948e-08
  -7.16169290458e-08
  +7.16169293759e-08
  -7.16169291171e-08
  +7.16169293193e-08
  -7.16169291604e-08
  +7.16169292849e-08
  -7.16169291868e-08
  +7.16169292627e-08
  -7.16169292024e-08
  +7.16169292488e-08
  -7.16169292115e-08
  +7.16169292398e-08
  -7.16169292168e-08
  +7.16169292339e-08
  -7.16169292196e-08
  +7.16169292300e-08
  -7.16593608520e-08
  -7.16593608520e-08
  +7.16593608520e-08
  -7.16593608520e-08
  +7.16593608520e-08
  -7.16593608520e-08
  +7.16593608520e-08
  +7.16593608520e-08
  -7.16593608520e-08
  +7.16593608520e-08
  -7.16593608520e-08
  +7.16593608520e-08
  +7.16593608520e-08
  -7.16593608520e-08
  +7.16593608520e-08
  +7.16593608520e-08
  -7.16593608520e-08
  +7.16593608520e-08
  +7.16593608520e-08
  -7.16593608520e-08
  +7.16593608520e-08
  +7.16593608520e-08
  -7.16593608520e-08
  +7.16593608520e-08
  +7.16593608520e-08
  -2.51957616765e-06
  -2.51957616795e-06
  +2.51957616969e-06
  +2.51957616953e-06
  -2.51957616847e-06
  +2.51957616935e-06
  +2.51957616927e-06
  -2.51957616877e-06
  +2.51957616921e-06
  +2.51957616918e-06
  -2.51957616893e-06
  +2.51957616917e-06
  +2.51957616916e-06
  -2.51957616905e-06
  +2.51957616915e-06
  -2.51957616909e-06
  +2.51957616918e-06
  +2.51957616919e-06
  -2.51957616916e-06
  +2.51957616923e-06
  +2.51957616923e-06
  -2.51957616922e-06
  +2.51957616927e-06
  +2.51957616928e-06
  -2.51957616928e-06
  +4.17174623923e-06
  -4.17174623923e-06
  -4.17174623923e-06
  -4.17174623923e-06
  -4.17174623923e-06
  -4.17174623923e-06
  -4.17174623923e-06
  +4.17174623923e-06
  -4.17174623923e-06
  +4.17174623923e-06
  -4.17174623923e-06
  +4.17174623923e-06
  -4.17174623923e-06
  +4.17174623923e-06
  -4.17174623923e-06
  +4.17174623923e-06
  -4.17174623923e-06
  +4.17174623923e-06
  -4.17174623923e-06
  +4.17174623923e-06
  -4.17174623923e-06
  +4.17174623923e-06
  -4.17174623923e-06
  +4.17174623923e-06
  -4.17174623923e-06
</dep>
<dep Vinj_low_side.Vt time>
  +1.04959592278e-04
  +2.95783336615e-03
  +5.65549560274e-03
  +7.77294116373e-03
  +9.43389512506e-03
  +1.07366921404e-02
  +1.17581931382e-02
  +1.25592105320e-02
  +1.31872977037e-02
  +1.36792417641e-02
  +1.40649218037e-02
  +1.43672395851e-02
  +1.46041774801e-02
  +1.47897535855e-02
  +1.49352041687e-02
  +1.50492240540e-02
  +1.51385525843e-02
  +1.52085538334e-02
  +1.52633911451e-02
  +1.53063669589e-02
  +1.53400289116e-02
  +1.53664132859e-02
  +1.53870755295e-02
  +1.54032744531e-02
  +1.54159562981e-02
  +1.75506191386e+01
  +1.75401429171e+01
  +1.75273109429e+01
  +1.75092481022e+01
  +1.74691192005e+01
  +1.39078248281e+01
  +1.27298902102e+01
  +1.25455112799e+01
  +1.25195102300e+01
  +1.25154570477e+01
  +1.25154056293e+01
  +1.25148861212e+01
  +1.25148770961e+01
  +1.25153260564e+01
  +1.25148758229e+01
  +1.25148758397e+01
  +1.25153255080e+01
  +1.25148761189e+01
  +1.25148761610e+01
  +1.25153251817e+01
  +1.25148764441e+01
  +1.25148764863e+01
  +1.25153248565e+01
  +1.25148767690e+01
  +1.25148768111e+01
  +3.55652414174e-03
  +6.12551554874e-03
  +8.14189232309e-03
  +9.72331065207e-03
  +1.09634571054e-02
  +1.19369296091e-02
  +1.26990728719e-02
  +1.32962967713e-02
  +1.37653609377e-02
  +1.41323033055e-02
  +1.44195688891e-02
  +1.46455927532e-02
  +1.48222543336e-02
  +1.49602867071e-02
  +1.50692582064e-02
  +1.51538412623e-02
  +1.52209337112e-02
  +1.52731128567e-02
  +1.53135652475e-02
  +1.53460797353e-02
  +1.53711823855e-02
  +1.53904071307e-02
  +1.54062856710e-02
  +1.54183620760e-02
  +1.54273744879e-02
  +1.75456082117e+01
  +1.75341482500e+01
  +1.75193137976e+01
  +1.74952569214e+01
  +1.60940670569e+01
  +1.30698383284e+01
  +1.25980436184e+01
  +1.25268325920e+01
  +1.25166922786e+01
  +1.25152953874e+01
  +1.25151454502e+01
  +1.25150880474e+01
  +1.25151176099e+01
  +1.25150843571e+01
  +1.25151170730e+01
  +1.25150843272e+01
  +1.25151170269e+01
  +1.25150843631e+01
  +1.25151169897e+01
  +1.25150844001e+01
  +1.25151169528e+01
  +1.25150844370e+01
  +1.25151169159e+01
  +1.25150844738e+01
  +1.25151168791e+01
</dep>
<dep _net0.Vt time>
  +1.91666711457e-04
  +1.37938663854e+00
  +2.63566761631e+00
  +3.62056182434e+00
  +4.39239147386e+00
  +4.99734414370e+00
  +5.47139623793e+00
  +5.84296231499e+00
  +6.13420253092e+00
  +6.36225190773e+00
  +6.54100391395e+00
  +6.68109097823e+00
  +6.79087227745e+00
  +6.87684217100e+00
  +6.94422256518e+00
  +6.99703452090e+00
  +7.03841240529e+00
  +7.07083176378e+00
  +7.09623215393e+00
  +7.11613322921e+00
  +7.13172561035e+00
  +7.14394216248e+00
  +7.15351376057e+00
  +7.16101306127e+00
  +7.16688871808e+00
  +2.41897760755e+01
  +2.24056126493e+01
  +2.10035732335e+01
  +1.98981701283e+01
  +1.90085040367e+01
  +1.49522864432e+01
  +1.36859204237e+01
  +1.34876946954e+01
  +1.34597099220e+01
  +1.34553833942e+01
  +1.34552970737e+01
  +1.34547695698e+01
  +1.34547598641e+01
  +1.34552115472e+01
  +1.34547584759e+01
  +1.34547584911e+01
  +1.34552109799e+01
  +1.34547587719e+01
  +1.34547588143e+01
  +1.34552106513e+01
  +1.34547590994e+01
  +1.34547591418e+01
  +1.34552103238e+01
  +1.34547594265e+01
  +1.34547594689e+01
  +1.65844528740e+00
  +2.85448563835e+00
  +3.79195942913e+00
  +4.52671089835e+00
  +5.10270542083e+00
  +5.55421468792e+00
  +5.90771757484e+00
  +6.18484242379e+00
  +6.40206419135e+00
  +6.57212277759e+00
  +6.70544404313e+00
  +6.80995298401e+00
  +6.89179409257e+00
  +6.95594516479e+00
  +7.00621013439e+00
  +7.04559763437e+00
  +7.07646155212e+00
  +7.10062808544e+00
  +7.11957356511e+00
  +7.13442129962e+00
  +7.14604682537e+00
  +7.15516065521e+00
  +7.16230359390e+00
  +7.16789626105e+00
  +7.17228052502e+00
  +2.32468065904e+01
  +2.16648362686e+01
  +2.04202614367e+01
  +1.94342652328e+01
  +1.73027290962e+01
  +1.40513818377e+01
  +1.35441555082e+01
  +1.34675988727e+01
  +1.34566947124e+01
  +1.34551952255e+01
  +1.34550317203e+01
  +1.34549723117e+01
  +1.34550017918e+01
  +1.34549683418e+01
  +1.34550012170e+01
  +1.34549683072e+01
  +1.34550011700e+01
  +1.34549683432e+01
  +1.34550011326e+01
  +1.34549683804e+01
  +1.34550010954e+01
  +1.34549684176e+01
  +1.34550010582e+01
  +1.34549684546e+01
  +1.34550010212e+01
</dep>
<dep Vinj.Vt time>
  +1.34622176468e-03
  +1.30121619751e+01
  +1.17565692075e+01
  +1.07682246493e+01
  +9.99369182614e+00
  +9.38662139743e+00
  +8.91091039671e+00
  +8.53804441279e+00
  +8.24578554286e+00
  +8.01693866566e+00
  +7.83756163434e+00
  +7.69698480353e+00
  +7.58681971378e+00
  +7.50054930315e+00
  +7.43293337563e+00
  +7.37993682917e+00
  +7.33841431348e+00
  +7.30588164997e+00
  +7.28039247767e+00
  +7.26042185311e+00
  +7.24477497111e+00
  +7.23251572827e+00
  +7.22291067247e+00
  +7.21538516800e+00
  +7.20948897076e+00
  +7.72346331891e+00
  +9.50663741125e+00
  +1.09037176796e+01
  +1.19972208466e+01
  +1.28515752698e+01
  +1.33496276333e+01
  +1.34387181212e+01
  +1.34526682263e+01
  +1.34546667740e+01
  +1.34549421347e+01
  +1.34549773213e+01
  +1.34549853526e+01
  +1.34549860383e+01
  +1.34549833193e+01
  +1.34549861542e+01
  +1.34549861558e+01
  +1.34549833384e+01
  +1.34549861542e+01
  +1.34549861539e+01
  +1.34549833407e+01
  +1.34549861520e+01
  +1.34549861517e+01
  +1.34549833429e+01
  +1.34549861497e+01
  +1.34549861494e+01
  +1.27371965020e+01
  +1.15369850099e+01
  +1.05962268684e+01
  +9.85890234117e+00
  +9.28089114585e+00
  +8.82780240805e+00
  +8.47306287413e+00
  +8.19496831868e+00
  +7.97698739384e+00
  +7.80633419953e+00
  +7.67254636964e+00
  +7.56767253639e+00
  +7.48554534130e+00
  +7.42116957583e+00
  +7.37072936937e+00
  +7.33120374568e+00
  +7.30023240995e+00
  +7.27598141282e+00
  +7.25696926254e+00
  +7.24207009117e+00
  +7.23040393477e+00
  +7.22125779701e+00
  +7.21409035015e+00
  +7.20847813722e+00
  +7.20407809503e+00
  +8.66617592413e+00
  +1.02455831534e+01
  +1.14822929936e+01
  +1.24496851847e+01
  +1.31842433265e+01
  +1.34130145003e+01
  +1.34487104554e+01
  +1.34540959453e+01
  +1.34548654925e+01
  +1.34549688522e+01
  +1.34549825229e+01
  +1.34549845421e+01
  +1.34549846267e+01
  +1.34549848239e+01
  +1.34549846648e+01
  +1.34549848287e+01
  +1.34549846657e+01
  +1.34549848285e+01
  +1.34549846660e+01
  +1.34549848283e+01
  +1.34549846662e+01
  +1.34549848280e+01
  +1.34549846665e+01
  +1.34549848278e+01
  +1.34549846667e+01
</dep>
<dep _net6.Vt time>
  +1.43281342831e-03
  +1.43867579856e+01
  +1.43830793147e+01
  +1.43762028948e+01
  +1.43708132430e+01
  +1.43665888923e+01
  +1.43632786172e+01
  +1.43606839978e+01
  +1.43586502897e+01
  +1.43570578394e+01
  +1.43558096292e+01
  +1.43548314134e+01
  +1.43540648203e+01
  +1.43534645003e+01
  +1.43529939892e+01
  +1.43526252082e+01
  +1.43523362703e+01
  +1.43521098889e+01
  +1.43519325204e+01
  +1.43517935531e+01
  +1.43516846730e+01
  +1.43515993660e+01
  +1.43515325284e+01
  +1.43514801615e+01
  +1.43514391323e+01
  +1.43537798338e+01
  +1.43656284887e+01
  +1.43753511257e+01
  +1.43829618846e+01
  +1.43889103259e+01
  +1.43926984874e+01
  +1.43934753250e+01
  +1.43935970700e+01
  +1.43936145356e+01
  +1.43936169148e+01
  +1.43936172458e+01
  +1.43936172920e+01
  +1.43936172980e+01
  +1.43936172981e+01
  +1.43936172990e+01
  +1.43936172990e+01
  +1.43936172983e+01
  +1.43936172990e+01
  +1.43936172990e+01
  +1.43936172983e+01
  +1.43936172990e+01
  +1.43936172990e+01
  +1.43936172983e+01
  +1.43936172990e+01
  +1.43936172990e+01
  +1.43898816850e+01
  +1.43815523762e+01
  +1.43750060329e+01
  +1.43698752983e+01
  +1.43658531602e+01
  +1.43627003025e+01
  +1.43602318175e+01
  +1.43582966746e+01
  +1.43567798343e+01
  +1.43555923296e+01
  +1.43546613572e+01
  +1.43539315822e+01
  +1.43533600932e+01
  +1.43529121305e+01
  +1.43525611365e+01
  +1.43522860957e+01
  +1.43520705775e+01
  +1.43519018248e+01
  +1.43517695287e+01
  +1.43516658500e+01
  +1.43515846701e+01
  +1.43515210275e+01
  +1.43514711506e+01
  +1.43514320976e+01
  +1.43514014810e+01
  +1.43597828269e+01
  +1.43707709217e+01
  +1.43793778529e+01
  +1.43861115943e+01
  +1.43912959623e+01
  +1.43932510275e+01
  +1.43935625425e+01
  +1.43936095412e+01
  +1.43936162586e+01
  +1.43936171592e+01
  +1.43936172800e+01
  +1.43936172961e+01
  +1.43936172983e+01
  +1.43936172986e+01
  +1.43936172986e+01
  +1.43936172987e+01
  +1.43936172986e+01
  +1.43936172987e+01
  +1.43936172986e+01
  +1.43936172987e+01
  +1.43936172986e+01
  +1.43936172987e+01
  +1.43936172986e+01
  +1.43936172987e+01
  +1.43936172986e+01
</dep>
<dep _net1.Vt time>
  +1.05075047829e-04
  +4.79062804680e-03
  +9.15750907904e-03
  +1.25835788244e-02
  +1.52700570142e-02
  +1.73766488003e-02
  +1.90280174322e-02
  +2.03227299787e-02
  +2.13377840329e-02
  +2.21327339957e-02
  +2.27559191301e-02
  +2.32443683982e-02
  +2.36271709555e-02
  +2.39269738484e-02
  +2.41619516534e-02
  +2.43461418927e-02
  +2.44904485267e-02
  +2.46035248187e-02
  +2.46921112021e-02
  +2.47615292255e-02
  +2.48159085141e-02
  +2.48585248028e-02
  +2.48919046707e-02
  +2.49180677778e-02
  +2.49385565135e-02
  +1.75594595607e+01
  +1.75466215718e+01
  +1.75319397875e+01
  +1.75124290902e+01
  +1.74711689806e+01
  +1.39092155892e+01
  +1.27311632198e+01
  +1.25467658517e+01
  +1.25207621604e+01
  +1.25167086141e+01
  +1.25166571492e+01
  +1.25161376304e+01
  +1.25161286044e+01
  +1.25165775684e+01
  +1.25161273311e+01
  +1.25161273479e+01
  +1.25165770200e+01
  +1.25161276271e+01
  +1.25161276692e+01
  +1.25165766937e+01
  +1.25161279523e+01
  +1.25161279944e+01
  +1.25165763684e+01
  +1.25161282772e+01
  +1.25161283193e+01
  +5.76010438576e-03
  +9.91827203716e-03
  +1.31802645425e-02
  +1.57379412615e-02
  +1.77434064579e-02
  +1.93167934684e-02
  +2.05486314631e-02
  +2.15140679125e-02
  +2.22717508583e-02
  +2.28646474790e-02
  +2.33290555392e-02
  +2.36939381476e-02
  +2.39793406695e-02
  +2.42026101133e-02
  +2.43783672293e-02
  +2.45152843956e-02
  +2.46233846013e-02
  +2.47076734061e-02
  +2.47732989357e-02
  +2.48255407471e-02
  +2.48660900326e-02
  +2.48974247713e-02
  +2.49227934050e-02
  +2.49423006898e-02
  +2.49571390026e-02
  +1.75531996876e+01
  +1.75396485003e+01
  +1.75231765774e+01
  +1.74978388233e+01
  +1.60956764604e+01
  +1.30711453104e+01
  +1.25993034211e+01
  +1.25280852768e+01
  +1.25179439463e+01
  +1.25165469184e+01
  +1.25163969632e+01
  +1.25163395577e+01
  +1.25163691202e+01
  +1.25163358670e+01
  +1.25163685832e+01
  +1.25163358372e+01
  +1.25163685371e+01
  +1.25163358730e+01
  +1.25163684999e+01
  +1.25163359100e+01
  +1.25163684629e+01
  +1.25163359469e+01
  +1.25163684261e+01
  +1.25163359837e+01
  +1.25163683893e+01
</dep>
<dep _net2.Vt time>
  +1.05075047829e-04
  +4.79062804680e-03
  +9.15750907904e-03
  +1.25835788244e-02
  +1.52700570142e-02
  +1.73766488003e-02
  +1.90280174322e-02
  +2.03227299787e-02
  +2.13377840329e-02
  +2.21327339957e-02
  +2.27559191301e-02
  +2.32443683982e-02
  +2.36271709555e-02
  +2.39269738484e-02
  +2.41619516534e-02
  +2.43461418927e-02
  +2.44904485267e-02
  +2.46035248187e-02
  +2.46921112021e-02
  +2.47615292255e-02
  +2.48159085141e-02
  +2.48585248028e-02
  +2.48919046707e-02
  +2.49180677778e-02
  +2.49385565135e-02
  +1.75594595607e+01
  +1.75466215718e+01
  +1.75319397875e+01
  +1.75124290902e+01
  +1.74711689806e+01
  +1.39092155892e+01
  +1.27311632198e+01
  +1.25467658517e+01
  +1.25207621604e+01
  +1.25167086141e+01
  +1.25166571492e+01
  +1.25161376304e+01
  +1.25161286044e+01
