<Qucs Dataset 0.0.14>
<indep time 11>
  +0.00000000000e+00
  +1.00000000000e-04
  +2.00000000000e-04
  +3.00000000000e-04
  +4.00000000000e-04
  +5.00000000000e-04
  +6.00000000000e-04
  +7.00000000000e-04
  +8.00000000000e-04
  +9.00000000000e-04
  +1.00000000000e-03
</indep>
<dep V1.It time>
  -4.76180188610e-12
  -4.76180188610e-12
  -4.76180188610e-12
  -4.76180188610e-12
  -4.76180188610e-12
  -4.76180188610e-12
  -4.76180188610e-12
  -4.76180188610e-12
  -4.76180188610e-12
  -4.76180188610e-12
  -4.76180188610e-12
</dep>
<dep V2.It time>
  +1.00000000000e-01
  +1.00000000000e-01
  +1.00000000000e-01
  +1.00000000000e-01
  +1.00000000000e-01
  +1.00000000000e-01
  +1.00000000000e-01
  +1.00000000000e-01
  +1.00000000000e-01
  +1.00000000000e-01
  +1.00000000000e-01
</dep>
<dep _net0.Vt time>
  -5.00000000000e+00
  -5.00000000000e+00
  -5.00000000000e+00
  -5.00000000000e+00
  -5.00000000000e+00
  -5.00000000000e+00
  -5.00000000000e+00
  -5.00000000000e+00
  -5.00000000000e+00
  -5.00000000000e+00
  -5.00000000000e+00
</dep>
<dep _net4.Vt time>
  +1.20000000000e+01
  +1.20000000000e+01
  +1.20000000000e+01
  +1.20000000000e+01
  +1.20000000000e+01
  +1.20000000000e+01
  +1.20000000000e+01
  +1.20000000000e+01
  +1.20000000000e+01
  +1.20000000000e+01
  +1.20000000000e+01
</dep>
<dep top.Vt time>
  +1.19999999762e+01
  +1.19999999762e+01
  +1.19999999762e+01
  +1.19999999762e+01
  +1.19999999762e+01
  +1.19999999762e+01
  +1.19999999762e+01
  +1.19999999762e+01
  +1.19999999762e+01
  +1.19999999762e+01
  +1.19999999762e+01
</dep>
<dep _net2.Vt time>
  +0.00000000000e+00
  +0.00000000000e+00
  +0.00000000000e+00
  +0.00000000000e+00
  +0.00000000000e+00
  +0.00000000000e+00
  +0.00000000000e+00
  +0.00000000000e+00
  +0.00000000000e+00
  +0.00000000000e+00
  +0.00000000000e+00
</dep>
<dep _net3.Vt time>
  +0.00000000000e+00
  +0.00000000000e+00
  +0.00000000000e+00
  +0.00000000000e+00
  +0.00000000000e+00
  +0.00000000000e+00
  +0.00000000000e+00
  +0.00000000000e+00
  +0.00000000000e+00
  +0.00000000000e+00
  +0.00000000000e+00
</dep>
<dep _net1.Vt time>
  +0.00000000000e+00
  +0.00000000000e+00
  +0.00000000000e+00
  +0.00000000000e+00
  +0.00000000000e+00
  +0.00000000000e+00
  +0.00000000000e+00
  +0.00000000000e+00
  +0.00000000000e+00
  +0.00000000000e+00
  +0.00000000000e+00
</dep>
